T5F18 000:354.139   SEGGER J-Link V7.94 Log File
T5F18 000:354.330   DLL Compiled: Nov 29 2023 13:35:28
T5F18 000:354.339   Logging started @ 2025-05-07 14:48
T5F18 000:354.347   Process: F:\Keil_v5\UV4\UV4.exe
T5F18 000:354.357 - 354.355ms
T5F18 000:354.373 JLINK_SetWarnOutHandler(...)
T5F18 000:354.381 - 0.009ms
T5F18 000:354.390 JLINK_OpenEx(...)
T5F18 000:611.009   Firmware: J-Link ARM-OB STM32 compiled Aug 22 2012 19:52:04
T5F18 000:620.223   Firmware: J-Link ARM-OB STM32 compiled Aug 22 2012 19:52:04
T5F18 000:631.824   Hardware: V7.00
T5F18 000:631.853   S/N: 20090928
T5F18 000:631.864   OEM: SEGGER
T5F18 000:631.875   Feature(s): RDI,FlashDL,FlashBP,JFlash,GDBFull
T5F18 000:635.269   Bootloader: (Could not read)
T5F18 000:641.028   TELNET listener socket opened on port 19021
T5F18 000:641.178   WEBSRV WEBSRV_Init(): Starting webserver thread(s)
T5F18 000:641.265   WEBSRV Failed to put socket into listener state (port 19080)
T5F18 000:641.421   WEBSRV Webserver running on local port 19081
T5F18 000:641.601   Looking for J-Link GUI Server exe at: f:\Keil_v5\ARM\Segger\JLinkGUIServer.exe
T5F18 000:641.677   Looking for J-Link GUI Server exe at: C:\Program Files\SEGGER\JLink_V794\JLinkGUIServer.exe
T5F18 000:641.726   Forking J-Link GUI Server: C:\Program Files\SEGGER\JLink_V794\JLinkGUIServer.exe
T5F18 000:647.302   J-Link GUI Server info: "J-Link GUI server V7.94 "
T5F18 000:647.599 - 293.199ms returns "O.K."
T5F18 000:647.629 JLINK_GetEmuCaps()
T5F18 000:647.644 - 0.011ms returns 0x88EA5833
T5F18 000:647.659 JLINK_TIF_GetAvailable(...)
T5F18 000:649.836 - 2.177ms
T5F18 000:649.860 JLINK_SetErrorOutHandler(...)
T5F18 000:649.872 - 0.011ms
T5F18 000:649.907 JLINK_ExecCommand("ProjectFile = "C:\Users\q8979\Desktop\PY32F0xx_Firmware-master\Projects\PY32F030-STK\Example\GPIO\GPIO_Toggle\MDK-ARM\JLinkSettings.ini"", ...). 
T5F18 000:671.238   Ref file found at: f:\Keil_v5\ARM\Segger\JLinkDevices.ref
T5F18 000:671.438   REF file references invalid XML file: C:\Program Files\SEGGER\JLink_V794\JLinkDevices.xml
T5F18 000:683.259   Device "CORTEX-M0+" selected.
T5F18 000:683.932 - 34.026ms returns 0x00
T5F18 000:690.507 JLINK_ExecCommand("Device = PY32F030x8", ...). 
T5F18 000:697.312   Device "CORTEX-M0+" selected.
T5F18 000:698.124 - 7.586ms returns 0x00
T5F18 000:698.145 JLINK_ExecCommand("DisableConnectionTimeout", ...). 
T5F18 000:698.157 - 0.002ms returns 0x01
T5F18 000:698.167 JLINK_GetHardwareVersion()
T5F18 000:698.176 - 0.008ms returns 70000
T5F18 000:698.191 JLINK_GetDLLVersion()
T5F18 000:698.199 - 0.014ms returns 79400
T5F18 000:698.209 JLINK_GetOEMString(...)
T5F18 000:698.219 JLINK_GetFirmwareString(...)
T5F18 000:698.227 - 0.008ms
T5F18 000:719.013 JLINK_GetDLLVersion()
T5F18 000:719.043 - 0.030ms returns 79400
T5F18 000:719.053 JLINK_GetCompileDateTime()
T5F18 000:719.061 - 0.007ms
T5F18 000:725.317 JLINK_GetFirmwareString(...)
T5F18 000:725.346 - 0.029ms
T5F18 000:733.060 JLINK_GetHardwareVersion()
T5F18 000:733.090 - 0.030ms returns 70000
T5F18 000:739.396 JLINK_GetSN()
T5F18 000:739.427 - 0.030ms returns 20090928
T5F18 000:746.361 JLINK_GetOEMString(...)
T5F18 000:759.912 JLINK_TIF_Select(JLINKARM_TIF_SWD)
T5F18 000:768.781 - 8.868ms returns 0x00
T5F18 000:768.817 JLINK_HasError()
T5F18 000:768.841 JLINK_SetSpeed(5000)
T5F18 000:771.815 - 2.976ms
T5F18 000:771.853 JLINK_GetId()
T5F18 000:788.328   Found SW-DP with ID 0x0BC11477
T5F18 000:841.922   Old FW that does not support reading DPIDR via DAP jobs
T5F18 000:906.212   DPv0 detected
T5F18 000:912.484   CoreSight SoC-400 or earlier
T5F18 000:917.750   Scanning AP map to find all available APs
T5F18 000:959.641   AP[1]: Stopped AP scan as end of AP map has been reached
T5F18 000:967.407   AP[0]: AHB-AP (IDR: 0x04770031)
T5F18 000:975.257   Iterating through AP map to find AHB-AP to use
T5F18 001:044.133   AP[0]: Core found
T5F18 001:053.001   AP[0]: AHB-AP ROM base: 0xE00FF000
T5F18 001:090.442   CPUID register: 0x410CC601. Implementer code: 0x41 (ARM)
T5F18 001:098.110   Found Cortex-M0 r0p1, Little endian.
T5F18 001:103.897   -- Max. mem block: 0x00002C18
T5F18 001:109.977   CPU_ReadMem(4 bytes @ 0xE000EDF0)
T5F18 001:113.210   CPU_WriteMem(4 bytes @ 0xE000EDF0)
T5F18 001:116.201   CPU_ReadMem(4 bytes @ 0xE0002000)
T5F18 001:128.190   FPUnit: 4 code (BP) slots and 0 literal slots
T5F18 001:128.246   CPU_ReadMem(4 bytes @ 0xE000EDFC)
T5F18 001:131.220   CPU_WriteMem(4 bytes @ 0xE000EDFC)
T5F18 001:134.300   CPU_ReadMem(4 bytes @ 0xE0001000)
T5F18 001:137.239   CPU_WriteMem(4 bytes @ 0xE0001000)
T5F18 001:149.464   CoreSight components:
T5F18 001:156.475   ROMTbl[0] @ E00FF000
T5F18 001:156.516   CPU_ReadMem(64 bytes @ 0xE00FF000)
T5F18 001:159.796   CPU_ReadMem(32 bytes @ 0xE000EFE0)
T5F18 001:170.354   [0][0]: E000E000 CID B105E00D PID 000BB008 SCS
T5F18 001:170.392   CPU_ReadMem(32 bytes @ 0xE0001FE0)
T5F18 001:180.994   [0][1]: E0001000 CID B105E00D PID 000BB00A DWT
T5F18 001:181.035   CPU_ReadMem(32 bytes @ 0xE0002FE0)
T5F18 001:191.660   [0][2]: E0002000 CID B105E00D PID 000BB00B FPB
T5F18 001:197.077 - 425.221ms returns 0x0BC11477
T5F18 001:197.118 JLINK_GetDLLVersion()
T5F18 001:197.127 - 0.009ms returns 79400
T5F18 001:197.139 JLINK_CORE_GetFound()
T5F18 001:197.150 - 0.010ms returns 0x60000FF
T5F18 001:197.165 JLINK_GetDebugInfo(0x100 = JLINKARM_ROM_TABLE_ADDR_INDEX)
T5F18 001:197.178   Value=0xE00FF000
T5F18 001:197.191 - 0.026ms returns 0
T5F18 001:204.295 JLINK_GetDebugInfo(0x100 = JLINKARM_ROM_TABLE_ADDR_INDEX)
T5F18 001:204.326   Value=0xE00FF000
T5F18 001:204.339 - 0.044ms returns 0
T5F18 001:204.350 JLINK_GetDebugInfo(0x101 = JLINKARM_DEBUG_INFO_ETM_ADDR_INDEX)
T5F18 001:204.359   Value=0x00000000
T5F18 001:204.371 - 0.021ms returns 0
T5F18 001:204.388 JLINK_ReadMemEx(0xE0041FF0, 0x10 Bytes, Flags = 0x02000004)
T5F18 001:204.422   CPU_ReadMem(16 bytes @ 0xE0041FF0)
T5F18 001:207.299   Data:  00 00 00 00 00 00 00 00 00 00 00 00 00 00 00 00
T5F18 001:207.319 - 2.930ms returns 16 (0x10)
T5F18 001:207.330 JLINK_GetDebugInfo(0x102 = JLINKARM_DEBUG_INFO_MTB_ADDR_INDEX)
T5F18 001:207.338   Value=0x00000000
T5F18 001:207.350 - 0.019ms returns 0
T5F18 001:207.358 JLINK_GetDebugInfo(0x103 = JLINKARM_DEBUG_INFO_TPIU_ADDR_INDEX)
T5F18 001:207.366   Value=0x00000000
T5F18 001:207.378 - 0.019ms returns 0
T5F18 001:207.387 JLINK_ReadMemEx(0xE0040FF0, 0x10 Bytes, Flags = 0x02000004)
T5F18 001:207.399   CPU_ReadMem(16 bytes @ 0xE0040FF0)
T5F18 001:210.291   Data:  00 00 00 00 00 00 00 00 00 00 00 00 00 00 00 00
T5F18 001:210.307 - 2.920ms returns 16 (0x10)
T5F18 001:210.319 JLINK_GetDebugInfo(0x104 = JLINKARM_DEBUG_INFO_ITM_ADDR_INDEX)
T5F18 001:210.327   Value=0xE0000000
T5F18 001:210.338 - 0.019ms returns 0
T5F18 001:210.347 JLINK_GetDebugInfo(0x105 = JLINKARM_DEBUG_INFO_DWT_ADDR_INDEX)
T5F18 001:210.354   Value=0xE0001000
T5F18 001:210.366 - 0.019ms returns 0
T5F18 001:210.375 JLINK_GetDebugInfo(0x106 = JLINKARM_DEBUG_INFO_FPB_ADDR_INDEX)
T5F18 001:210.383   Value=0xE0002000
T5F18 001:210.394 - 0.020ms returns 0
T5F18 001:210.405 JLINK_GetDebugInfo(0x107 = JLINKARM_DEBUG_INFO_NVIC_ADDR_INDEX)
T5F18 001:210.425   Value=0xE000E000
T5F18 001:210.440 - 0.035ms returns 0
T5F18 001:210.454 JLINK_GetDebugInfo(0x10C = JLINKARM_DEBUG_INFO_DBG_ADDR_INDEX)
T5F18 001:210.465   Value=0xE000EDF0
T5F18 001:210.485 - 0.030ms returns 0
T5F18 001:210.504 JLINK_GetDebugInfo(0x01 = Unknown)
T5F18 001:210.515   Value=0x00000000
T5F18 001:210.535 - 0.035ms returns 0
T5F18 001:210.550 JLINK_ReadMemU32(0xE000ED00, 0x1 Items)
T5F18 001:210.567   CPU_ReadMem(4 bytes @ 0xE000ED00)
T5F18 001:213.221   Data:  01 C6 0C 41
T5F18 001:213.255   Debug reg: CPUID
T5F18 001:213.271 - 2.720ms returns 1 (0x1)
T5F18 001:213.289 JLINK_GetDebugInfo(0x10F = JLINKARM_DEBUG_INFO_HAS_CORTEX_M_SECURITY_EXT_INDEX)
T5F18 001:213.300   Value=0x00000000
T5F18 001:213.316 - 0.027ms returns 0
T5F18 001:213.329 JLINK_HasError()
T5F18 001:213.342 JLINK_SetResetType(JLINKARM_CM3_RESET_TYPE_NORMAL)
T5F18 001:213.352 - 0.009ms returns JLINKARM_CM3_RESET_TYPE_NORMAL
T5F18 001:213.362 JLINK_Reset()
T5F18 001:213.399   CPU is running
T5F18 001:213.421   CPU_WriteMem(4 bytes @ 0xE000EDF0)
T5F18 001:216.197   CPU is running
T5F18 001:216.216   CPU_WriteMem(4 bytes @ 0xE000EDFC)
T5F18 001:226.475   Reset: Halt core after reset via DEMCR.VC_CORERESET.
T5F18 001:239.013   Reset: Reset device via AIRCR.SYSRESETREQ.
T5F18 001:239.049   CPU is running
T5F18 001:239.065   CPU_WriteMem(4 bytes @ 0xE000ED0C)
T5F18 001:305.981   CPU_ReadMem(4 bytes @ 0xE000EDF0)
T5F18 001:309.207   CPU_ReadMem(4 bytes @ 0xE000EDF0)
T5F18 001:320.574   CPU_WriteMem(4 bytes @ 0xE000EDFC)
T5F18 001:328.589   CPU_ReadMem(4 bytes @ 0xE000EDF0)
T5F18 001:339.611   CPU_WriteMem(4 bytes @ 0xE0002000)
T5F18 001:342.222   CPU_ReadMem(4 bytes @ 0xE000EDFC)
T5F18 001:345.238   CPU_ReadMem(4 bytes @ 0xE0001000)
T5F18 001:348.215   CPU_WriteMem(4 bytes @ 0xE0001000)
T5F18 001:351.224 - 137.861ms
T5F18 001:351.252 JLINK_Halt()
T5F18 001:351.261 - 0.008ms returns 0x00
T5F18 001:351.273 JLINK_ReadMemU32(0xE000EDF0, 0x1 Items)
T5F18 001:351.293   CPU_ReadMem(4 bytes @ 0xE000EDF0)
T5F18 001:354.225   Data:  03 00 03 01
T5F18 001:354.246   Debug reg: DHCSR
T5F18 001:354.257 - 2.984ms returns 1 (0x1)
T5F18 001:354.277 JLINK_WriteU32_64(0xE000EDF0, 0xA05F0003)
T5F18 001:354.285   Debug reg: DHCSR
T5F18 001:354.552   CPU_WriteMem(4 bytes @ 0xE000EDF0)
T5F18 001:357.214 - 2.937ms returns 0 (0x00000000)
T5F18 001:357.233 JLINK_WriteU32_64(0xE000EDFC, 0x01000000)
T5F18 001:357.242   Debug reg: DEMCR
T5F18 001:357.258   CPU_WriteMem(4 bytes @ 0xE000EDFC)
T5F18 001:360.228 - 2.994ms returns 0 (0x00000000)
T5F18 001:385.796 JLINK_GetHWStatus(...)
T5F18 001:387.955 - 2.158ms returns 0
T5F18 001:405.525 JLINK_GetNumBPUnits(Type = 0xFFFFFF00)
T5F18 001:405.558 - 0.032ms returns 0x04
T5F18 001:405.567 JLINK_GetNumBPUnits(Type = 0xF0)
T5F18 001:405.576 - 0.008ms returns 0x2000
T5F18 001:405.585 JLINK_GetNumWPUnits()
T5F18 001:405.592 - 0.007ms returns 2
T5F18 001:420.817 JLINK_GetSpeed()
T5F18 001:420.848 - 0.030ms returns 4000
T5F18 001:431.166 JLINK_ReadMemU32(0xE000E004, 0x1 Items)
T5F18 001:431.212   CPU_ReadMem(4 bytes @ 0xE000E004)
T5F18 001:434.223   Data:  00 00 00 00
T5F18 001:434.241 - 3.074ms returns 1 (0x1)
T5F18 001:434.255 JLINK_Halt()
T5F18 001:434.264 - 0.008ms returns 0x00
T5F18 001:434.273 JLINK_IsHalted()
T5F18 001:434.283 - 0.009ms returns TRUE
T5F18 001:440.164 JLINK_WriteMem(0x20000000, 0x3F0 Bytes, ...)
T5F18 001:440.189   Data:  00 BE 0A E0 0D 78 2D 06 68 40 08 24 40 00 00 D3 ...
T5F18 001:440.622   CPU_WriteMem(1008 bytes @ 0x20000000)
T5F18 001:454.942 - 14.777ms returns 0x3F0
T5F18 001:455.032 JLINK_HasError()
T5F18 001:455.044 JLINK_WriteReg(R0, 0x08000000)
T5F18 001:455.059 - 0.014ms returns 0
T5F18 001:455.069 JLINK_WriteReg(R1, 0x007A1200)
T5F18 001:455.077 - 0.008ms returns 0
T5F18 001:455.086 JLINK_WriteReg(R2, 0x00000001)
T5F18 001:455.095 - 0.008ms returns 0
T5F18 001:455.116 JLINK_WriteReg(R3, 0x00000000)
T5F18 001:455.125 - 0.008ms returns 0
T5F18 001:455.134 JLINK_WriteReg(R4, 0x00000000)
T5F18 001:455.142 - 0.008ms returns 0
T5F18 001:455.151 JLINK_WriteReg(R5, 0x00000000)
T5F18 001:455.160 - 0.008ms returns 0
T5F18 001:455.169 JLINK_WriteReg(R6, 0x00000000)
T5F18 001:455.177 - 0.008ms returns 0
T5F18 001:455.186 JLINK_WriteReg(R7, 0x00000000)
T5F18 001:455.194 - 0.008ms returns 0
T5F18 001:455.211 JLINK_WriteReg(R8, 0x00000000)
T5F18 001:455.220 - 0.016ms returns 0
T5F18 001:455.228 JLINK_WriteReg(R9, 0x200003E8)
T5F18 001:455.237 - 0.008ms returns 0
T5F18 001:455.246 JLINK_WriteReg(R10, 0x00000000)
T5F18 001:455.254 - 0.008ms returns 0
T5F18 001:455.263 JLINK_WriteReg(R11, 0x00000000)
T5F18 001:455.272 - 0.008ms returns 0
T5F18 001:455.281 JLINK_WriteReg(R12, 0x00000000)
T5F18 001:455.289 - 0.008ms returns 0
T5F18 001:455.298 JLINK_WriteReg(R13 (SP), 0x20001000)
T5F18 001:455.307 - 0.009ms returns 0
T5F18 001:455.316 JLINK_WriteReg(R14, 0x20000001)
T5F18 001:455.325 - 0.008ms returns 0
T5F18 001:455.336 JLINK_WriteReg(R15 (PC), 0x200001D4)
T5F18 001:455.349 - 0.015ms returns 0
T5F18 001:455.361 JLINK_WriteReg(XPSR, 0x01000000)
T5F18 001:455.370 - 0.008ms returns 0
T5F18 001:455.379 JLINK_WriteReg(MSP, 0x20001000)
T5F18 001:455.387 - 0.008ms returns 0
T5F18 001:455.396 JLINK_WriteReg(PSP, 0x20001000)
T5F18 001:455.405 - 0.008ms returns 0
T5F18 001:455.413 JLINK_WriteReg(CFBP, 0x00000000)
T5F18 001:455.422 - 0.008ms returns 0
T5F18 001:455.431 JLINK_SetBPEx(Addr = 0x20000000, Type = 0xFFFFFFF2)
T5F18 001:455.445   CPU_ReadMem(4 bytes @ 0x20000000)
T5F18 001:458.234   CPU_WriteMem(4 bytes @ 0x20000000)
T5F18 001:461.225   CPU_ReadMem(4 bytes @ 0x20000000)
T5F18 001:464.253   CPU_WriteMem(4 bytes @ 0x20000000)
T5F18 001:467.240   CPU_ReadMem(2 bytes @ 0x20000000)
T5F18 001:470.237 - 14.805ms returns 0x00000001
T5F18 001:470.258 JLINK_Go()
T5F18 001:470.272   CPU_WriteMem(2 bytes @ 0x20000000)
T5F18 001:473.271   CPU_ReadMem(4 bytes @ 0xE0001000)
T5F18 001:476.229   CPU_WriteMem(4 bytes @ 0xE0001000)
T5F18 001:479.233   CPU_WriteMem(4 bytes @ 0xE0002008)
T5F18 001:479.252   CPU_WriteMem(4 bytes @ 0xE000200C)
T5F18 001:479.263   CPU_WriteMem(4 bytes @ 0xE0002010)
T5F18 001:479.275   CPU_WriteMem(4 bytes @ 0xE0002014)
T5F18 001:483.323   CPU_WriteMem(4 bytes @ 0xE0001004)
T5F18 001:499.566   Memory map 'after startup completion point' is active
T5F18 001:499.593 - 29.335ms
T5F18 001:499.611 JLINK_IsHalted()
T5F18 001:507.584   CPU_ReadMem(2 bytes @ 0x20000000)
T5F18 001:510.240 - 10.628ms returns TRUE
T5F18 001:510.259 JLINK_ReadReg(R15 (PC))
T5F18 001:510.271 - 0.012ms returns 0x20000000
T5F18 001:510.283 JLINK_ClrBPEx(BPHandle = 0x00000001)
T5F18 001:510.292 - 0.008ms returns 0x00
T5F18 001:510.304 JLINK_ReadReg(R0)
T5F18 001:510.313 - 0.009ms returns 0x00000000
T5F18 001:510.803 JLINK_HasError()
T5F18 001:510.818 JLINK_WriteReg(R0, 0x08000000)
T5F18 001:510.838 - 0.019ms returns 0
T5F18 001:510.847 JLINK_WriteReg(R1, 0x00001000)
T5F18 001:510.855 - 0.008ms returns 0
T5F18 001:510.864 JLINK_WriteReg(R2, 0x000000FF)
T5F18 001:510.873 - 0.008ms returns 0
T5F18 001:510.882 JLINK_WriteReg(R3, 0x00000000)
T5F18 001:510.890 - 0.008ms returns 0
T5F18 001:510.899 JLINK_WriteReg(R4, 0x00000000)
T5F18 001:510.907 - 0.008ms returns 0
T5F18 001:510.916 JLINK_WriteReg(R5, 0x00000000)
T5F18 001:510.924 - 0.008ms returns 0
T5F18 001:510.933 JLINK_WriteReg(R6, 0x00000000)
T5F18 001:510.942 - 0.008ms returns 0
T5F18 001:510.950 JLINK_WriteReg(R7, 0x00000000)
T5F18 001:510.959 - 0.008ms returns 0
T5F18 001:510.968 JLINK_WriteReg(R8, 0x00000000)
T5F18 001:510.976 - 0.008ms returns 0
T5F18 001:510.985 JLINK_WriteReg(R9, 0x200003E8)
T5F18 001:510.993 - 0.008ms returns 0
T5F18 001:511.002 JLINK_WriteReg(R10, 0x00000000)
T5F18 001:511.010 - 0.008ms returns 0
T5F18 001:511.019 JLINK_WriteReg(R11, 0x00000000)
T5F18 001:511.027 - 0.008ms returns 0
T5F18 001:511.036 JLINK_WriteReg(R12, 0x00000000)
T5F18 001:511.044 - 0.008ms returns 0
T5F18 001:511.053 JLINK_WriteReg(R13 (SP), 0x20001000)
T5F18 001:511.062 - 0.008ms returns 0
T5F18 001:511.071 JLINK_WriteReg(R14, 0x20000001)
T5F18 001:511.079 - 0.008ms returns 0
T5F18 001:511.088 JLINK_WriteReg(R15 (PC), 0x2000031A)
T5F18 001:511.097 - 0.008ms returns 0
T5F18 001:511.106 JLINK_WriteReg(XPSR, 0x01000000)
T5F18 001:511.118 - 0.012ms returns 0
T5F18 001:511.127 JLINK_WriteReg(MSP, 0x20001000)
T5F18 001:511.136 - 0.008ms returns 0
T5F18 001:511.144 JLINK_WriteReg(PSP, 0x20001000)
T5F18 001:511.153 - 0.008ms returns 0
T5F18 001:511.162 JLINK_WriteReg(CFBP, 0x00000000)
T5F18 001:511.170 - 0.008ms returns 0
T5F18 001:511.179 JLINK_SetBPEx(Addr = 0x20000000, Type = 0xFFFFFFF2)
T5F18 001:511.189 - 0.010ms returns 0x00000002
T5F18 001:511.199 JLINK_Go()
T5F18 001:511.213   CPU_ReadMem(4 bytes @ 0xE0001000)
T5F18 001:522.389 - 11.189ms
T5F18 001:522.421 JLINK_IsHalted()
T5F18 001:530.745   CPU_ReadMem(2 bytes @ 0x20000000)
T5F18 001:533.247 - 10.825ms returns TRUE
T5F18 001:533.265 JLINK_ReadReg(R15 (PC))
T5F18 001:533.278 - 0.012ms returns 0x20000000
T5F18 001:533.287 JLINK_ClrBPEx(BPHandle = 0x00000002)
T5F18 001:533.361 - 0.073ms returns 0x00
T5F18 001:533.371 JLINK_ReadReg(R0)
T5F18 001:533.380 - 0.008ms returns 0x00000001
T5F18 001:533.390 JLINK_HasError()
T5F18 001:533.400 JLINK_WriteReg(R0, 0x08000000)
T5F18 001:533.409 - 0.009ms returns 0
T5F18 001:533.418 JLINK_WriteReg(R1, 0x00001000)
T5F18 001:533.426 - 0.008ms returns 0
T5F18 001:533.436 JLINK_WriteReg(R2, 0x000000FF)
T5F18 001:533.444 - 0.008ms returns 0
T5F18 001:533.453 JLINK_WriteReg(R3, 0x00000000)
T5F18 001:533.461 - 0.008ms returns 0
T5F18 001:533.470 JLINK_WriteReg(R4, 0x00000000)
T5F18 001:533.478 - 0.008ms returns 0
T5F18 001:533.487 JLINK_WriteReg(R5, 0x00000000)
T5F18 001:533.496 - 0.008ms returns 0
T5F18 001:533.504 JLINK_WriteReg(R6, 0x00000000)
T5F18 001:533.513 - 0.008ms returns 0
T5F18 001:533.522 JLINK_WriteReg(R7, 0x00000000)
T5F18 001:533.530 - 0.008ms returns 0
T5F18 001:533.539 JLINK_WriteReg(R8, 0x00000000)
T5F18 001:533.547 - 0.008ms returns 0
T5F18 001:533.556 JLINK_WriteReg(R9, 0x200003E8)
T5F18 001:533.564 - 0.008ms returns 0
T5F18 001:533.574 JLINK_WriteReg(R10, 0x00000000)
T5F18 001:533.582 - 0.008ms returns 0
T5F18 001:533.591 JLINK_WriteReg(R11, 0x00000000)
T5F18 001:533.599 - 0.008ms returns 0
T5F18 001:533.608 JLINK_WriteReg(R12, 0x00000000)
T5F18 001:533.617 - 0.008ms returns 0
T5F18 001:533.626 JLINK_WriteReg(R13 (SP), 0x20001000)
T5F18 001:533.647 - 0.021ms returns 0
T5F18 001:533.657 JLINK_WriteReg(R14, 0x20000001)
T5F18 001:533.665 - 0.008ms returns 0
T5F18 001:533.674 JLINK_WriteReg(R15 (PC), 0x200002B6)
T5F18 001:533.683 - 0.008ms returns 0
T5F18 001:533.692 JLINK_WriteReg(XPSR, 0x01000000)
T5F18 001:533.700 - 0.008ms returns 0
T5F18 001:533.709 JLINK_WriteReg(MSP, 0x20001000)
T5F18 001:533.717 - 0.008ms returns 0
T5F18 001:533.726 JLINK_WriteReg(PSP, 0x20001000)
T5F18 001:533.734 - 0.008ms returns 0
T5F18 001:533.743 JLINK_WriteReg(CFBP, 0x00000000)
T5F18 001:533.752 - 0.008ms returns 0
T5F18 001:533.761 JLINK_SetBPEx(Addr = 0x20000000, Type = 0xFFFFFFF2)
T5F18 001:533.770 - 0.009ms returns 0x00000003
T5F18 001:533.779 JLINK_Go()
T5F18 001:533.793   CPU_ReadMem(4 bytes @ 0xE0001000)
T5F18 001:545.375 - 11.595ms
T5F18 001:545.394 JLINK_IsHalted()
T5F18 001:549.288 - 3.893ms returns FALSE
T5F18 001:549.317 JLINK_HasError()
T5F18 001:584.559 JLINK_IsHalted()
T5F18 001:592.722   CPU_ReadMem(2 bytes @ 0x20000000)
T5F18 001:595.286 - 10.726ms returns TRUE
T5F18 001:595.318 JLINK_ReadReg(R15 (PC))
T5F18 001:595.333 - 0.015ms returns 0x20000000
T5F18 001:595.343 JLINK_ClrBPEx(BPHandle = 0x00000003)
T5F18 001:595.352 - 0.009ms returns 0x00
T5F18 001:595.362 JLINK_ReadReg(R0)
T5F18 001:595.370 - 0.008ms returns 0x00000000
T5F18 001:595.920 JLINK_HasError()
T5F18 001:595.936 JLINK_WriteReg(R0, 0x00000001)
T5F18 001:595.946 - 0.010ms returns 0
T5F18 001:595.956 JLINK_WriteReg(R1, 0x00001000)
T5F18 001:595.964 - 0.008ms returns 0
T5F18 001:595.973 JLINK_WriteReg(R2, 0x000000FF)
T5F18 001:595.982 - 0.008ms returns 0
T5F18 001:595.991 JLINK_WriteReg(R3, 0x00000000)
T5F18 001:595.999 - 0.008ms returns 0
T5F18 001:596.008 JLINK_WriteReg(R4, 0x00000000)
T5F18 001:596.017 - 0.008ms returns 0
T5F18 001:596.026 JLINK_WriteReg(R5, 0x00000000)
T5F18 001:596.034 - 0.008ms returns 0
T5F18 001:596.043 JLINK_WriteReg(R6, 0x00000000)
T5F18 001:596.051 - 0.008ms returns 0
T5F18 001:596.060 JLINK_WriteReg(R7, 0x00000000)
T5F18 001:596.068 - 0.008ms returns 0
T5F18 001:596.077 JLINK_WriteReg(R8, 0x00000000)
T5F18 001:596.086 - 0.008ms returns 0
T5F18 001:596.095 JLINK_WriteReg(R9, 0x200003E8)
T5F18 001:596.103 - 0.008ms returns 0
T5F18 001:596.112 JLINK_WriteReg(R10, 0x00000000)
T5F18 001:596.120 - 0.008ms returns 0
T5F18 001:596.129 JLINK_WriteReg(R11, 0x00000000)
T5F18 001:596.137 - 0.008ms returns 0
T5F18 001:596.147 JLINK_WriteReg(R12, 0x00000000)
T5F18 001:596.156 - 0.009ms returns 0
T5F18 001:596.165 JLINK_WriteReg(R13 (SP), 0x20001000)
T5F18 001:596.174 - 0.008ms returns 0
T5F18 001:596.183 JLINK_WriteReg(R14, 0x20000001)
T5F18 001:596.195 - 0.012ms returns 0
T5F18 001:596.208 JLINK_WriteReg(R15 (PC), 0x2000021A)
T5F18 001:596.217 - 0.008ms returns 0
T5F18 001:596.226 JLINK_WriteReg(XPSR, 0x01000000)
T5F18 001:596.234 - 0.008ms returns 0
T5F18 001:596.243 JLINK_WriteReg(MSP, 0x20001000)
T5F18 001:596.251 - 0.008ms returns 0
T5F18 001:596.260 JLINK_WriteReg(PSP, 0x20001000)
T5F18 001:596.268 - 0.008ms returns 0
T5F18 001:596.277 JLINK_WriteReg(CFBP, 0x00000000)
T5F18 001:596.286 - 0.008ms returns 0
T5F18 001:596.295 JLINK_SetBPEx(Addr = 0x20000000, Type = 0xFFFFFFF2)
T5F18 001:596.304 - 0.009ms returns 0x00000004
T5F18 001:596.314 JLINK_Go()
T5F18 001:596.329   CPU_ReadMem(4 bytes @ 0xE0001000)
T5F18 001:607.358 - 11.043ms
T5F18 001:607.382 JLINK_IsHalted()
T5F18 001:615.636   CPU_ReadMem(2 bytes @ 0x20000000)
T5F18 001:618.356 - 10.972ms returns TRUE
T5F18 001:618.397 JLINK_ReadReg(R15 (PC))
T5F18 001:618.413 - 0.016ms returns 0x20000000
T5F18 001:618.425 JLINK_ClrBPEx(BPHandle = 0x00000004)
T5F18 001:618.434 - 0.009ms returns 0x00
T5F18 001:618.446 JLINK_ReadReg(R0)
T5F18 001:618.454 - 0.008ms returns 0x00000000
T5F18 001:680.934 JLINK_WriteMem(0x20000000, 0x3F0 Bytes, ...)
T5F18 001:680.952   Data:  00 BE 0A E0 0D 78 2D 06 68 40 08 24 40 00 00 D3 ...
T5F18 001:680.981   CPU_WriteMem(1008 bytes @ 0x20000000)
T5F18 001:696.107 - 15.172ms returns 0x3F0
T5F18 001:696.187 JLINK_HasError()
T5F18 001:696.199 JLINK_WriteReg(R0, 0x08000000)
T5F18 001:696.213 - 0.013ms returns 0
T5F18 001:696.223 JLINK_WriteReg(R1, 0x007A1200)
T5F18 001:696.232 - 0.009ms returns 0
T5F18 001:696.241 JLINK_WriteReg(R2, 0x00000002)
T5F18 001:696.250 - 0.008ms returns 0
T5F18 001:696.259 JLINK_WriteReg(R3, 0x00000000)
T5F18 001:696.267 - 0.008ms returns 0
T5F18 001:696.276 JLINK_WriteReg(R4, 0x00000000)
T5F18 001:696.285 - 0.008ms returns 0
T5F18 001:696.294 JLINK_WriteReg(R5, 0x00000000)
T5F18 001:696.303 - 0.008ms returns 0
T5F18 001:696.312 JLINK_WriteReg(R6, 0x00000000)
T5F18 001:696.320 - 0.008ms returns 0
T5F18 001:696.329 JLINK_WriteReg(R7, 0x00000000)
T5F18 001:696.338 - 0.008ms returns 0
T5F18 001:696.346 JLINK_WriteReg(R8, 0x00000000)
T5F18 001:696.355 - 0.008ms returns 0
T5F18 001:696.364 JLINK_WriteReg(R9, 0x200003E8)
T5F18 001:696.372 - 0.008ms returns 0
T5F18 001:696.381 JLINK_WriteReg(R10, 0x00000000)
T5F18 001:696.390 - 0.008ms returns 0
T5F18 001:696.399 JLINK_WriteReg(R11, 0x00000000)
T5F18 001:696.407 - 0.008ms returns 0
T5F18 001:696.416 JLINK_WriteReg(R12, 0x00000000)
T5F18 001:696.425 - 0.008ms returns 0
T5F18 001:696.434 JLINK_WriteReg(R13 (SP), 0x20001000)
T5F18 001:696.443 - 0.009ms returns 0
T5F18 001:696.452 JLINK_WriteReg(R14, 0x20000001)
T5F18 001:696.460 - 0.008ms returns 0
T5F18 001:696.481 JLINK_WriteReg(R15 (PC), 0x200001D4)
T5F18 001:696.490 - 0.008ms returns 0
T5F18 001:696.499 JLINK_WriteReg(XPSR, 0x01000000)
T5F18 001:696.508 - 0.008ms returns 0
T5F18 001:696.517 JLINK_WriteReg(MSP, 0x20001000)
T5F18 001:696.525 - 0.008ms returns 0
T5F18 001:696.534 JLINK_WriteReg(PSP, 0x20001000)
T5F18 001:696.557 - 0.023ms returns 0
T5F18 001:696.567 JLINK_WriteReg(CFBP, 0x00000000)
T5F18 001:696.575 - 0.008ms returns 0
T5F18 001:696.585 JLINK_SetBPEx(Addr = 0x20000000, Type = 0xFFFFFFF2)
T5F18 001:696.599   CPU_ReadMem(4 bytes @ 0x20000000)
T5F18 001:699.264   CPU_WriteMem(4 bytes @ 0x20000000)
T5F18 001:702.264   CPU_ReadMem(4 bytes @ 0x20000000)
T5F18 001:705.266   CPU_WriteMem(4 bytes @ 0x20000000)
T5F18 001:708.258   CPU_ReadMem(2 bytes @ 0x20000000)
T5F18 001:711.270 - 14.684ms returns 0x00000005
T5F18 001:711.291 JLINK_Go()
T5F18 001:711.305   CPU_WriteMem(2 bytes @ 0x20000000)
T5F18 001:714.309   CPU_ReadMem(4 bytes @ 0xE0001000)
T5F18 001:725.503 - 14.211ms
T5F18 001:725.529 JLINK_IsHalted()
T5F18 001:733.631   CPU_ReadMem(2 bytes @ 0x20000000)
T5F18 001:736.432 - 10.903ms returns TRUE
T5F18 001:736.458 JLINK_ReadReg(R15 (PC))
T5F18 001:736.470 - 0.012ms returns 0x20000000
T5F18 001:736.482 JLINK_ClrBPEx(BPHandle = 0x00000005)
T5F18 001:736.491 - 0.009ms returns 0x00
T5F18 001:736.511 JLINK_ReadReg(R0)
T5F18 001:736.520 - 0.009ms returns 0x00000000
T5F18 001:737.094 JLINK_WriteMem(0x200003F0, 0x10 Bytes, ...)
T5F18 001:737.107   Data:  20 05 00 20 D9 00 00 08 85 06 00 08 81 06 00 08
T5F18 001:737.127   CPU_WriteMem(16 bytes @ 0x200003F0)
T5F18 001:740.457 - 3.363ms returns 0x10
T5F18 001:740.472 JLINK_WriteMem(0x20000400, 0x70 Bytes, ...)
T5F18 001:740.480   Data:  00 00 00 00 00 00 00 00 00 00 00 00 00 00 00 00 ...
T5F18 001:740.495   CPU_WriteMem(112 bytes @ 0x20000400)
T5F18 001:744.584 - 4.111ms returns 0x70
T5F18 001:744.599 JLINK_HasError()
T5F18 001:744.609 JLINK_WriteReg(R0, 0x08000000)
T5F18 001:744.704 - 0.094ms returns 0
T5F18 001:744.727 JLINK_WriteReg(R1, 0x00000080)
T5F18 001:744.746 - 0.018ms returns 0
T5F18 001:744.760 JLINK_WriteReg(R2, 0x200003F0)
T5F18 001:744.772 - 0.011ms returns 0
T5F18 001:744.785 JLINK_WriteReg(R3, 0x00000000)
T5F18 001:744.804 - 0.018ms returns 0
T5F18 001:744.820 JLINK_WriteReg(R4, 0x00000000)
T5F18 001:744.833 - 0.013ms returns 0
T5F18 001:744.845 JLINK_WriteReg(R5, 0x00000000)
T5F18 001:744.864 - 0.018ms returns 0
T5F18 001:744.876 JLINK_WriteReg(R6, 0x00000000)
T5F18 001:744.895 - 0.018ms returns 0
T5F18 001:744.909 JLINK_WriteReg(R7, 0x00000000)
T5F18 001:744.921 - 0.011ms returns 0
T5F18 001:744.945 JLINK_WriteReg(R8, 0x00000000)
T5F18 001:744.962 - 0.020ms returns 0
T5F18 001:744.975 JLINK_WriteReg(R9, 0x200003E8)
T5F18 001:744.987 - 0.012ms returns 0
T5F18 001:745.008 JLINK_WriteReg(R10, 0x00000000)
T5F18 001:745.030 - 0.022ms returns 0
T5F18 001:745.041 JLINK_WriteReg(R11, 0x00000000)
T5F18 001:745.053 - 0.011ms returns 0
T5F18 001:745.071 JLINK_WriteReg(R12, 0x00000000)
T5F18 001:745.087 - 0.016ms returns 0
T5F18 001:745.099 JLINK_WriteReg(R13 (SP), 0x20001000)
T5F18 001:745.110 - 0.011ms returns 0
T5F18 001:745.123 JLINK_WriteReg(R14, 0x20000001)
T5F18 001:745.134 - 0.011ms returns 0
T5F18 001:745.147 JLINK_WriteReg(R15 (PC), 0x20000320)
T5F18 001:745.160 - 0.013ms returns 0
T5F18 001:745.177 JLINK_WriteReg(XPSR, 0x01000000)
T5F18 001:745.191 - 0.014ms returns 0
T5F18 001:745.204 JLINK_WriteReg(MSP, 0x20001000)
T5F18 001:745.312 - 0.105ms returns 0
T5F18 001:745.337 JLINK_WriteReg(PSP, 0x20001000)
T5F18 001:745.355 - 0.018ms returns 0
T5F18 001:745.369 JLINK_WriteReg(CFBP, 0x00000000)
T5F18 001:745.386 - 0.016ms returns 0
T5F18 001:745.401 JLINK_SetBPEx(Addr = 0x20000000, Type = 0xFFFFFFF2)
T5F18 001:745.417 - 0.016ms returns 0x00000006
T5F18 001:745.432 JLINK_Go()
T5F18 001:745.465   CPU_ReadMem(4 bytes @ 0xE0001000)
T5F18 001:756.585 - 11.151ms
T5F18 001:756.617 JLINK_IsHalted()
T5F18 001:764.609   CPU_ReadMem(2 bytes @ 0x20000000)
T5F18 001:767.268 - 10.650ms returns TRUE
T5F18 001:767.288 JLINK_ReadReg(R15 (PC))
T5F18 001:767.300 - 0.011ms returns 0x20000000
T5F18 001:767.311 JLINK_ClrBPEx(BPHandle = 0x00000006)
T5F18 001:767.320 - 0.008ms returns 0x00
T5F18 001:767.331 JLINK_ReadReg(R0)
T5F18 001:767.340 - 0.008ms returns 0x00000000
T5F18 001:768.257 JLINK_WriteMem(0x200003F0, 0x10 Bytes, ...)
T5F18 001:768.270   Data:  EB 00 00 08 EB 00 00 08 00 00 00 00 EB 00 00 08
T5F18 001:768.289   CPU_WriteMem(16 bytes @ 0x200003F0)
T5F18 001:771.421 - 3.164ms returns 0x10
T5F18 001:771.436 JLINK_WriteMem(0x20000400, 0x70 Bytes, ...)
T5F18 001:771.444   Data:  00 00 00 00 EB 00 00 08 EB 00 00 08 EB 00 00 08 ...
T5F18 001:771.460   CPU_WriteMem(112 bytes @ 0x20000400)
T5F18 001:775.661 - 4.225ms returns 0x70
T5F18 001:775.679 JLINK_HasError()
T5F18 001:775.691 JLINK_WriteReg(R0, 0x08000080)
T5F18 001:775.701 - 0.011ms returns 0
T5F18 001:775.711 JLINK_WriteReg(R1, 0x00000080)
T5F18 001:775.719 - 0.008ms returns 0
T5F18 001:775.728 JLINK_WriteReg(R2, 0x200003F0)
T5F18 001:775.737 - 0.008ms returns 0
T5F18 001:775.746 JLINK_WriteReg(R3, 0x00000000)
T5F18 001:775.754 - 0.008ms returns 0
T5F18 001:775.763 JLINK_WriteReg(R4, 0x00000000)
T5F18 001:775.771 - 0.008ms returns 0
T5F18 001:775.780 JLINK_WriteReg(R5, 0x00000000)
T5F18 001:775.789 - 0.008ms returns 0
T5F18 001:775.804 JLINK_WriteReg(R6, 0x00000000)
T5F18 001:775.813 - 0.008ms returns 0
T5F18 001:775.822 JLINK_WriteReg(R7, 0x00000000)
T5F18 001:775.830 - 0.008ms returns 0
T5F18 001:775.839 JLINK_WriteReg(R8, 0x00000000)
T5F18 001:775.848 - 0.008ms returns 0
T5F18 001:775.856 JLINK_WriteReg(R9, 0x200003E8)
T5F18 001:775.865 - 0.008ms returns 0
T5F18 001:775.874 JLINK_WriteReg(R10, 0x00000000)
T5F18 001:775.882 - 0.008ms returns 0
T5F18 001:775.891 JLINK_WriteReg(R11, 0x00000000)
T5F18 001:775.899 - 0.008ms returns 0
T5F18 001:775.908 JLINK_WriteReg(R12, 0x00000000)
T5F18 001:775.916 - 0.008ms returns 0
T5F18 001:775.925 JLINK_WriteReg(R13 (SP), 0x20001000)
T5F18 001:775.935 - 0.009ms returns 0
T5F18 001:775.943 JLINK_WriteReg(R14, 0x20000001)
T5F18 001:775.952 - 0.008ms returns 0
T5F18 001:775.961 JLINK_WriteReg(R15 (PC), 0x20000320)
T5F18 001:775.969 - 0.008ms returns 0
T5F18 001:775.978 JLINK_WriteReg(XPSR, 0x01000000)
T5F18 001:775.987 - 0.008ms returns 0
T5F18 001:775.995 JLINK_WriteReg(MSP, 0x20001000)
T5F18 001:776.004 - 0.008ms returns 0
T5F18 001:776.013 JLINK_WriteReg(PSP, 0x20001000)
T5F18 001:776.021 - 0.008ms returns 0
T5F18 001:776.030 JLINK_WriteReg(CFBP, 0x00000000)
T5F18 001:776.038 - 0.008ms returns 0
T5F18 001:776.047 JLINK_SetBPEx(Addr = 0x20000000, Type = 0xFFFFFFF2)
T5F18 001:776.057 - 0.009ms returns 0x00000007
T5F18 001:776.066 JLINK_Go()
T5F18 001:776.081   CPU_ReadMem(4 bytes @ 0xE0001000)
T5F18 001:787.377 - 11.310ms
T5F18 001:787.399 JLINK_IsHalted()
T5F18 001:795.593   CPU_ReadMem(2 bytes @ 0x20000000)
T5F18 001:798.282 - 10.882ms returns TRUE
T5F18 001:798.307 JLINK_ReadReg(R15 (PC))
T5F18 001:798.319 - 0.013ms returns 0x20000000
T5F18 001:798.331 JLINK_ClrBPEx(BPHandle = 0x00000007)
T5F18 001:798.340 - 0.009ms returns 0x00
T5F18 001:798.352 JLINK_ReadReg(R0)
T5F18 001:798.361 - 0.008ms returns 0x00000000
T5F18 001:799.258 JLINK_WriteMem(0x200003F0, 0x10 Bytes, ...)
T5F18 001:799.271   Data:  09 E0 0D 46 D5 40 9D 42 05 D3 1D 46 95 40 49 1B
T5F18 001:799.291   CPU_WriteMem(16 bytes @ 0x200003F0)
T5F18 001:802.515 - 3.257ms returns 0x10
T5F18 001:802.531 JLINK_WriteMem(0x20000400, 0x70 Bytes, ...)
T5F18 001:802.540   Data:  25 46 95 40 40 19 15 46 52 1E 00 2D F1 DC 30 BD ...
T5F18 001:802.556   CPU_WriteMem(112 bytes @ 0x20000400)
T5F18 001:806.670 - 4.139ms returns 0x70
T5F18 001:806.687 JLINK_HasError()
T5F18 001:806.697 JLINK_WriteReg(R0, 0x08000100)
T5F18 001:806.708 - 0.011ms returns 0
T5F18 001:806.718 JLINK_WriteReg(R1, 0x00000080)
T5F18 001:806.726 - 0.008ms returns 0
T5F18 001:806.735 JLINK_WriteReg(R2, 0x200003F0)
T5F18 001:806.744 - 0.008ms returns 0
T5F18 001:806.753 JLINK_WriteReg(R3, 0x00000000)
T5F18 001:806.761 - 0.008ms returns 0
T5F18 001:806.770 JLINK_WriteReg(R4, 0x00000000)
T5F18 001:806.778 - 0.008ms returns 0
T5F18 001:806.787 JLINK_WriteReg(R5, 0x00000000)
T5F18 001:806.795 - 0.008ms returns 0
T5F18 001:806.804 JLINK_WriteReg(R6, 0x00000000)
T5F18 001:806.813 - 0.008ms returns 0
T5F18 001:806.821 JLINK_WriteReg(R7, 0x00000000)
T5F18 001:806.830 - 0.008ms returns 0
T5F18 001:806.839 JLINK_WriteReg(R8, 0x00000000)
T5F18 001:806.847 - 0.008ms returns 0
T5F18 001:806.856 JLINK_WriteReg(R9, 0x200003E8)
T5F18 001:806.864 - 0.008ms returns 0
T5F18 001:806.873 JLINK_WriteReg(R10, 0x00000000)
T5F18 001:806.881 - 0.008ms returns 0
T5F18 001:806.890 JLINK_WriteReg(R11, 0x00000000)
T5F18 001:806.899 - 0.008ms returns 0
T5F18 001:806.907 JLINK_WriteReg(R12, 0x00000000)
T5F18 001:806.916 - 0.008ms returns 0
T5F18 001:806.925 JLINK_WriteReg(R13 (SP), 0x20001000)
T5F18 001:806.933 - 0.008ms returns 0
T5F18 001:806.942 JLINK_WriteReg(R14, 0x20000001)
T5F18 001:806.951 - 0.008ms returns 0
T5F18 001:806.960 JLINK_WriteReg(R15 (PC), 0x20000320)
T5F18 001:806.968 - 0.008ms returns 0
T5F18 001:806.977 JLINK_WriteReg(XPSR, 0x01000000)
T5F18 001:806.986 - 0.008ms returns 0
T5F18 001:806.995 JLINK_WriteReg(MSP, 0x20001000)
T5F18 001:807.003 - 0.008ms returns 0
T5F18 001:807.012 JLINK_WriteReg(PSP, 0x20001000)
T5F18 001:807.094 - 0.082ms returns 0
T5F18 001:807.104 JLINK_WriteReg(CFBP, 0x00000000)
T5F18 001:807.116 - 0.012ms returns 0
T5F18 001:807.126 JLINK_SetBPEx(Addr = 0x20000000, Type = 0xFFFFFFF2)
T5F18 001:807.135 - 0.009ms returns 0x00000008
T5F18 001:807.144 JLINK_Go()
T5F18 001:807.159   CPU_ReadMem(4 bytes @ 0xE0001000)
T5F18 001:818.444 - 11.299ms
T5F18 001:818.464 JLINK_IsHalted()
T5F18 001:826.742   CPU_ReadMem(2 bytes @ 0x20000000)
T5F18 001:829.279 - 10.813ms returns TRUE
T5F18 001:829.300 JLINK_ReadReg(R15 (PC))
T5F18 001:829.312 - 0.011ms returns 0x20000000
T5F18 001:829.324 JLINK_ClrBPEx(BPHandle = 0x00000008)
T5F18 001:829.332 - 0.008ms returns 0x00
T5F18 001:829.344 JLINK_ReadReg(R0)
T5F18 001:829.353 - 0.009ms returns 0x00000000
T5F18 001:830.279 JLINK_WriteMem(0x200003F0, 0x10 Bytes, ...)
T5F18 001:830.292   Data:  30 2C F6 DB 01 20 40 07 03 49 88 60 00 F0 FA FB
T5F18 001:830.311   CPU_WriteMem(16 bytes @ 0x200003F0)
T5F18 001:833.519 - 3.239ms returns 0x10
T5F18 001:833.534 JLINK_WriteMem(0x20000400, 0x70 Bytes, ...)
T5F18 001:833.543   Data:  00 20 70 BD 00 00 00 20 00 ED 00 E0 00 BF FE E7 ...
T5F18 001:833.559   CPU_WriteMem(112 bytes @ 0x20000400)
T5F18 001:837.756 - 4.221ms returns 0x70
T5F18 001:837.773 JLINK_HasError()
T5F18 001:837.784 JLINK_WriteReg(R0, 0x08000180)
T5F18 001:837.795 - 0.011ms returns 0
T5F18 001:837.804 JLINK_WriteReg(R1, 0x00000080)
T5F18 001:837.812 - 0.008ms returns 0
T5F18 001:837.821 JLINK_WriteReg(R2, 0x200003F0)
T5F18 001:837.830 - 0.008ms returns 0
T5F18 001:837.838 JLINK_WriteReg(R3, 0x00000000)
T5F18 001:837.847 - 0.008ms returns 0
T5F18 001:837.856 JLINK_WriteReg(R4, 0x00000000)
T5F18 001:837.864 - 0.008ms returns 0
T5F18 001:837.873 JLINK_WriteReg(R5, 0x00000000)
T5F18 001:837.881 - 0.008ms returns 0
T5F18 001:837.890 JLINK_WriteReg(R6, 0x00000000)
T5F18 001:837.899 - 0.008ms returns 0
T5F18 001:837.907 JLINK_WriteReg(R7, 0x00000000)
T5F18 001:837.916 - 0.008ms returns 0
T5F18 001:837.925 JLINK_WriteReg(R8, 0x00000000)
T5F18 001:837.933 - 0.008ms returns 0
T5F18 001:837.942 JLINK_WriteReg(R9, 0x200003E8)
T5F18 001:837.951 - 0.008ms returns 0
T5F18 001:837.959 JLINK_WriteReg(R10, 0x00000000)
T5F18 001:837.968 - 0.008ms returns 0
T5F18 001:837.977 JLINK_WriteReg(R11, 0x00000000)
T5F18 001:837.985 - 0.008ms returns 0
T5F18 001:837.994 JLINK_WriteReg(R12, 0x00000000)
T5F18 001:838.002 - 0.008ms returns 0
T5F18 001:838.011 JLINK_WriteReg(R13 (SP), 0x20001000)
T5F18 001:838.020 - 0.008ms returns 0
T5F18 001:838.029 JLINK_WriteReg(R14, 0x20000001)
T5F18 001:838.037 - 0.008ms returns 0
T5F18 001:838.046 JLINK_WriteReg(R15 (PC), 0x20000320)
T5F18 001:838.054 - 0.008ms returns 0
T5F18 001:838.063 JLINK_WriteReg(XPSR, 0x01000000)
T5F18 001:838.072 - 0.008ms returns 0
T5F18 001:838.081 JLINK_WriteReg(MSP, 0x20001000)
T5F18 001:838.089 - 0.008ms returns 0
T5F18 001:838.105 JLINK_WriteReg(PSP, 0x20001000)
T5F18 001:838.113 - 0.008ms returns 0
T5F18 001:838.123 JLINK_WriteReg(CFBP, 0x00000000)
T5F18 001:838.131 - 0.008ms returns 0
T5F18 001:838.140 JLINK_SetBPEx(Addr = 0x20000000, Type = 0xFFFFFFF2)
T5F18 001:838.150 - 0.009ms returns 0x00000009
T5F18 001:838.159 JLINK_Go()
T5F18 001:838.174   CPU_ReadMem(4 bytes @ 0xE0001000)
T5F18 001:849.413 - 11.253ms
T5F18 001:849.444 JLINK_IsHalted()
T5F18 001:857.780   CPU_ReadMem(2 bytes @ 0x20000000)
T5F18 001:860.284 - 10.838ms returns TRUE
T5F18 001:860.305 JLINK_ReadReg(R15 (PC))
T5F18 001:860.317 - 0.012ms returns 0x20000000
T5F18 001:860.329 JLINK_ClrBPEx(BPHandle = 0x00000009)
T5F18 001:860.338 - 0.009ms returns 0x00
T5F18 001:860.350 JLINK_ReadReg(R0)
T5F18 001:860.358 - 0.008ms returns 0x00000000
T5F18 001:861.256 JLINK_WriteMem(0x200003F0, 0x10 Bytes, ...)
T5F18 001:861.277   Data:  01 20 03 90 04 90 02 20 05 90 02 A9 03 48 00 F0
T5F18 001:861.296   CPU_WriteMem(16 bytes @ 0x200003F0)
T5F18 001:864.470 - 3.213ms returns 0x10
T5F18 001:864.500 JLINK_WriteMem(0x20000400, 0x70 Bytes, ...)
T5F18 001:864.509   Data:  7F F8 07 B0 00 BD 00 00 00 10 02 40 00 04 00 50 ...
T5F18 001:864.598   CPU_WriteMem(112 bytes @ 0x20000400)
T5F18 001:868.619 - 4.118ms returns 0x70
T5F18 001:868.637 JLINK_HasError()
T5F18 001:868.648 JLINK_WriteReg(R0, 0x08000200)
T5F18 001:868.660 - 0.011ms returns 0
T5F18 001:868.669 JLINK_WriteReg(R1, 0x00000080)
T5F18 001:868.678 - 0.008ms returns 0
T5F18 001:868.687 JLINK_WriteReg(R2, 0x200003F0)
T5F18 001:868.695 - 0.008ms returns 0
T5F18 001:868.704 JLINK_WriteReg(R3, 0x00000000)
T5F18 001:868.713 - 0.008ms returns 0
T5F18 001:868.722 JLINK_WriteReg(R4, 0x00000000)
T5F18 001:868.730 - 0.008ms returns 0
T5F18 001:868.739 JLINK_WriteReg(R5, 0x00000000)
T5F18 001:868.747 - 0.008ms returns 0
T5F18 001:868.756 JLINK_WriteReg(R6, 0x00000000)
T5F18 001:868.764 - 0.008ms returns 0
T5F18 001:868.773 JLINK_WriteReg(R7, 0x00000000)
T5F18 001:868.781 - 0.008ms returns 0
T5F18 001:868.790 JLINK_WriteReg(R8, 0x00000000)
T5F18 001:868.799 - 0.008ms returns 0
T5F18 001:868.807 JLINK_WriteReg(R9, 0x200003E8)
T5F18 001:868.816 - 0.008ms returns 0
T5F18 001:868.825 JLINK_WriteReg(R10, 0x00000000)
T5F18 001:868.833 - 0.008ms returns 0
T5F18 001:868.842 JLINK_WriteReg(R11, 0x00000000)
T5F18 001:868.850 - 0.008ms returns 0
T5F18 001:868.859 JLINK_WriteReg(R12, 0x00000000)
T5F18 001:868.867 - 0.008ms returns 0
T5F18 001:868.876 JLINK_WriteReg(R13 (SP), 0x20001000)
T5F18 001:868.886 - 0.009ms returns 0
T5F18 001:868.895 JLINK_WriteReg(R14, 0x20000001)
T5F18 001:868.903 - 0.008ms returns 0
T5F18 001:868.912 JLINK_WriteReg(R15 (PC), 0x20000320)
T5F18 001:868.920 - 0.008ms returns 0
T5F18 001:868.929 JLINK_WriteReg(XPSR, 0x01000000)
T5F18 001:868.938 - 0.008ms returns 0
T5F18 001:868.947 JLINK_WriteReg(MSP, 0x20001000)
T5F18 001:868.955 - 0.008ms returns 0
T5F18 001:868.964 JLINK_WriteReg(PSP, 0x20001000)
T5F18 001:868.972 - 0.008ms returns 0
T5F18 001:868.981 JLINK_WriteReg(CFBP, 0x00000000)
T5F18 001:868.989 - 0.008ms returns 0
T5F18 001:868.999 JLINK_SetBPEx(Addr = 0x20000000, Type = 0xFFFFFFF2)
T5F18 001:869.008 - 0.009ms returns 0x0000000A
T5F18 001:869.017 JLINK_Go()
T5F18 001:869.032   CPU_ReadMem(4 bytes @ 0xE0001000)
T5F18 001:880.393 - 11.375ms
T5F18 001:880.416 JLINK_IsHalted()
T5F18 001:888.792   CPU_ReadMem(2 bytes @ 0x20000000)
T5F18 001:891.283 - 10.866ms returns TRUE
T5F18 001:891.303 JLINK_ReadReg(R15 (PC))
T5F18 001:891.314 - 0.012ms returns 0x20000000
T5F18 001:891.326 JLINK_ClrBPEx(BPHandle = 0x0000000A)
T5F18 001:891.334 - 0.008ms returns 0x00
T5F18 001:891.346 JLINK_ReadReg(R0)
T5F18 001:891.354 - 0.008ms returns 0x00000000
T5F18 001:892.265 JLINK_WriteMem(0x200003F0, 0x10 Bytes, ...)
T5F18 001:892.277   Data:  48 63 08 46 40 6B 20 21 08 40 01 90 00 BF 00 BF
T5F18 001:892.295   CPU_WriteMem(16 bytes @ 0x200003F0)
T5F18 001:895.543 - 3.277ms returns 0x10
T5F18 001:895.570 JLINK_WriteMem(0x20000400, 0x70 Bytes, ...)
T5F18 001:895.579   Data:  14 21 02 A8 FF F7 4B FF 01 20 02 90 02 20 03 90 ...
T5F18 001:895.603   CPU_WriteMem(112 bytes @ 0x20000400)
T5F18 001:899.680 - 4.109ms returns 0x70
T5F18 001:899.712 JLINK_HasError()
T5F18 001:899.724 JLINK_WriteReg(R0, 0x08000280)
T5F18 001:899.739 - 0.015ms returns 0
T5F18 001:899.749 JLINK_WriteReg(R1, 0x00000080)
T5F18 001:899.757 - 0.008ms returns 0
T5F18 001:899.766 JLINK_WriteReg(R2, 0x200003F0)
T5F18 001:899.775 - 0.008ms returns 0
T5F18 001:899.784 JLINK_WriteReg(R3, 0x00000000)
T5F18 001:899.792 - 0.008ms returns 0
T5F18 001:899.801 JLINK_WriteReg(R4, 0x00000000)
T5F18 001:899.809 - 0.008ms returns 0
T5F18 001:899.818 JLINK_WriteReg(R5, 0x00000000)
T5F18 001:899.827 - 0.008ms returns 0
T5F18 001:899.836 JLINK_WriteReg(R6, 0x00000000)
T5F18 001:899.844 - 0.008ms returns 0
T5F18 001:899.853 JLINK_WriteReg(R7, 0x00000000)
T5F18 001:899.861 - 0.008ms returns 0
T5F18 001:899.870 JLINK_WriteReg(R8, 0x00000000)
T5F18 001:899.878 - 0.008ms returns 0
T5F18 001:899.887 JLINK_WriteReg(R9, 0x200003E8)
T5F18 001:899.895 - 0.008ms returns 0
T5F18 001:899.904 JLINK_WriteReg(R10, 0x00000000)
T5F18 001:899.913 - 0.008ms returns 0
T5F18 001:899.986 JLINK_WriteReg(R11, 0x00000000)
T5F18 001:899.996 - 0.009ms returns 0
T5F18 001:900.005 JLINK_WriteReg(R12, 0x00000000)
T5F18 001:900.013 - 0.008ms returns 0
T5F18 001:900.022 JLINK_WriteReg(R13 (SP), 0x20001000)
T5F18 001:900.031 - 0.009ms returns 0
T5F18 001:900.040 JLINK_WriteReg(R14, 0x20000001)
T5F18 001:900.048 - 0.008ms returns 0
T5F18 001:900.057 JLINK_WriteReg(R15 (PC), 0x20000320)
T5F18 001:900.066 - 0.008ms returns 0
T5F18 001:900.075 JLINK_WriteReg(XPSR, 0x01000000)
T5F18 001:900.083 - 0.008ms returns 0
T5F18 001:900.092 JLINK_WriteReg(MSP, 0x20001000)
T5F18 001:900.100 - 0.008ms returns 0
T5F18 001:900.109 JLINK_WriteReg(PSP, 0x20001000)
T5F18 001:900.117 - 0.008ms returns 0
T5F18 001:900.126 JLINK_WriteReg(CFBP, 0x00000000)
T5F18 001:900.135 - 0.008ms returns 0
T5F18 001:900.144 JLINK_SetBPEx(Addr = 0x20000000, Type = 0xFFFFFFF2)
T5F18 001:900.154 - 0.010ms returns 0x0000000B
T5F18 001:900.163 JLINK_Go()
T5F18 001:900.180   CPU_ReadMem(4 bytes @ 0xE0001000)
T5F18 001:911.393 - 11.228ms
T5F18 001:911.408 JLINK_IsHalted()
T5F18 001:919.676   CPU_ReadMem(2 bytes @ 0x20000000)
T5F18 001:922.285 - 10.875ms returns TRUE
T5F18 001:922.304 JLINK_ReadReg(R15 (PC))
T5F18 001:922.316 - 0.011ms returns 0x20000000
T5F18 001:922.328 JLINK_ClrBPEx(BPHandle = 0x0000000B)
T5F18 001:922.337 - 0.008ms returns 0x00
T5F18 001:922.348 JLINK_ReadReg(R0)
T5F18 001:922.357 - 0.009ms returns 0x00000000
T5F18 001:923.287 JLINK_WriteMem(0x200003F0, 0x10 Bytes, ...)
T5F18 001:923.301   Data:  E9 F8 80 1B A8 42 FA D3 70 BD 00 00 CC 00 00 20
T5F18 001:923.321   CPU_WriteMem(16 bytes @ 0x200003F0)
T5F18 001:926.455 - 3.168ms returns 0x10
T5F18 001:926.470 JLINK_WriteMem(0x20000400, 0x70 Bytes, ...)
T5F18 001:926.479   Data:  70 B5 03 46 00 22 CB E0 01 26 96 40 0C 68 34 40 ...
T5F18 001:926.495   CPU_WriteMem(112 bytes @ 0x20000400)
T5F18 001:930.657 - 4.185ms returns 0x70
T5F18 001:930.691 JLINK_HasError()
T5F18 001:930.703 JLINK_WriteReg(R0, 0x08000300)
T5F18 001:930.719 - 0.015ms returns 0
T5F18 001:930.728 JLINK_WriteReg(R1, 0x00000080)
T5F18 001:930.737 - 0.008ms returns 0
T5F18 001:930.746 JLINK_WriteReg(R2, 0x200003F0)
T5F18 001:930.755 - 0.008ms returns 0
T5F18 001:930.764 JLINK_WriteReg(R3, 0x00000000)
T5F18 001:930.772 - 0.008ms returns 0
T5F18 001:930.781 JLINK_WriteReg(R4, 0x00000000)
T5F18 001:930.790 - 0.008ms returns 0
T5F18 001:930.799 JLINK_WriteReg(R5, 0x00000000)
T5F18 001:930.807 - 0.008ms returns 0
T5F18 001:930.816 JLINK_WriteReg(R6, 0x00000000)
T5F18 001:930.825 - 0.008ms returns 0
T5F18 001:930.834 JLINK_WriteReg(R7, 0x00000000)
T5F18 001:930.842 - 0.008ms returns 0
T5F18 001:930.851 JLINK_WriteReg(R8, 0x00000000)
T5F18 001:930.860 - 0.008ms returns 0
T5F18 001:930.869 JLINK_WriteReg(R9, 0x200003E8)
T5F18 001:930.877 - 0.008ms returns 0
T5F18 001:930.886 JLINK_WriteReg(R10, 0x00000000)
T5F18 001:930.895 - 0.008ms returns 0
T5F18 001:930.904 JLINK_WriteReg(R11, 0x00000000)
T5F18 001:930.912 - 0.008ms returns 0
T5F18 001:930.921 JLINK_WriteReg(R12, 0x00000000)
T5F18 001:930.929 - 0.008ms returns 0
T5F18 001:930.938 JLINK_WriteReg(R13 (SP), 0x20001000)
T5F18 001:930.948 - 0.009ms returns 0
T5F18 001:930.957 JLINK_WriteReg(R14, 0x20000001)
T5F18 001:930.965 - 0.008ms returns 0
T5F18 001:930.974 JLINK_WriteReg(R15 (PC), 0x20000320)
T5F18 001:930.983 - 0.008ms returns 0
T5F18 001:930.992 JLINK_WriteReg(XPSR, 0x01000000)
T5F18 001:931.000 - 0.008ms returns 0
T5F18 001:931.009 JLINK_WriteReg(MSP, 0x20001000)
T5F18 001:931.018 - 0.008ms returns 0
T5F18 001:931.027 JLINK_WriteReg(PSP, 0x20001000)
T5F18 001:931.035 - 0.008ms returns 0
T5F18 001:931.044 JLINK_WriteReg(CFBP, 0x00000000)
T5F18 001:931.053 - 0.008ms returns 0
T5F18 001:931.062 JLINK_SetBPEx(Addr = 0x20000000, Type = 0xFFFFFFF2)
T5F18 001:931.072 - 0.010ms returns 0x0000000C
T5F18 001:931.081 JLINK_Go()
T5F18 001:931.098   CPU_ReadMem(4 bytes @ 0xE0001000)
T5F18 001:942.441 - 11.359ms
T5F18 001:942.464 JLINK_IsHalted()
T5F18 001:950.601   CPU_ReadMem(2 bytes @ 0x20000000)
T5F18 001:953.296 - 10.830ms returns TRUE
T5F18 001:953.315 JLINK_ReadReg(R15 (PC))
T5F18 001:953.327 - 0.012ms returns 0x20000000
T5F18 001:953.339 JLINK_ClrBPEx(BPHandle = 0x0000000C)
T5F18 001:953.348 - 0.008ms returns 0x00
T5F18 001:953.359 JLINK_ReadReg(R0)
T5F18 001:953.368 - 0.008ms returns 0x00000000
T5F18 001:954.284 JLINK_WriteMem(0x200003F0, 0x10 Bytes, ...)
T5F18 001:954.299   Data:  02 2D 05 D0 4D 68 11 2D 02 D0 4D 68 12 2D 18 D1
T5F18 001:954.320   CPU_WriteMem(16 bytes @ 0x200003F0)
T5F18 001:957.540 - 3.255ms returns 0x10
T5F18 001:957.556 JLINK_WriteMem(0x20000400, 0x70 Bytes, ...)
T5F18 001:957.564   Data:  98 68 56 00 03 25 B5 40 06 46 AE 43 30 46 56 00 ...
T5F18 001:957.581   CPU_WriteMem(112 bytes @ 0x20000400)
T5F18 001:961.648 - 4.092ms returns 0x70
T5F18 001:961.665 JLINK_HasError()
T5F18 001:961.675 JLINK_WriteReg(R0, 0x08000380)
T5F18 001:961.686 - 0.011ms returns 0
T5F18 001:961.695 JLINK_WriteReg(R1, 0x00000080)
T5F18 001:961.704 - 0.008ms returns 0
T5F18 001:961.713 JLINK_WriteReg(R2, 0x200003F0)
T5F18 001:961.721 - 0.008ms returns 0
T5F18 001:961.730 JLINK_WriteReg(R3, 0x00000000)
T5F18 001:961.739 - 0.008ms returns 0
T5F18 001:961.748 JLINK_WriteReg(R4, 0x00000000)
T5F18 001:961.756 - 0.008ms returns 0
T5F18 001:961.765 JLINK_WriteReg(R5, 0x00000000)
T5F18 001:961.773 - 0.008ms returns 0
T5F18 001:961.782 JLINK_WriteReg(R6, 0x00000000)
T5F18 001:961.791 - 0.008ms returns 0
T5F18 001:961.799 JLINK_WriteReg(R7, 0x00000000)
T5F18 001:961.808 - 0.008ms returns 0
T5F18 001:961.817 JLINK_WriteReg(R8, 0x00000000)
T5F18 001:961.825 - 0.008ms returns 0
T5F18 001:961.838 JLINK_WriteReg(R9, 0x200003E8)
T5F18 001:961.847 - 0.008ms returns 0
T5F18 001:961.856 JLINK_WriteReg(R10, 0x00000000)
T5F18 001:961.865 - 0.009ms returns 0
T5F18 001:961.876 JLINK_WriteReg(R11, 0x00000000)
T5F18 001:961.888 - 0.011ms returns 0
T5F18 001:961.900 JLINK_WriteReg(R12, 0x00000000)
T5F18 001:961.934 - 0.034ms returns 0
T5F18 001:961.952 JLINK_WriteReg(R13 (SP), 0x20001000)
T5F18 001:961.965 - 0.013ms returns 0
T5F18 001:961.977 JLINK_WriteReg(R14, 0x20000001)
T5F18 001:961.986 - 0.009ms returns 0
T5F18 001:961.996 JLINK_WriteReg(R15 (PC), 0x20000320)
T5F18 001:962.016 - 0.019ms returns 0
T5F18 001:962.030 JLINK_WriteReg(XPSR, 0x01000000)
T5F18 001:962.064 - 0.034ms returns 0
T5F18 001:962.078 JLINK_WriteReg(MSP, 0x20001000)
T5F18 001:962.092 - 0.014ms returns 0
T5F18 001:962.105 JLINK_WriteReg(PSP, 0x20001000)
T5F18 001:962.117 - 0.011ms returns 0
T5F18 001:962.130 JLINK_WriteReg(CFBP, 0x00000000)
T5F18 001:962.143 - 0.012ms returns 0
T5F18 001:962.156 JLINK_SetBPEx(Addr = 0x20000000, Type = 0xFFFFFFF2)
T5F18 001:962.170 - 0.014ms returns 0x0000000D
T5F18 001:962.185 JLINK_Go()
T5F18 001:962.207   CPU_ReadMem(4 bytes @ 0xE0001000)
T5F18 001:973.413 - 11.226ms
T5F18 001:973.444 JLINK_IsHalted()
T5F18 001:981.565   CPU_ReadMem(2 bytes @ 0x20000000)
T5F18 001:984.299 - 10.853ms returns TRUE
T5F18 001:984.319 JLINK_ReadReg(R15 (PC))
T5F18 001:984.331 - 0.012ms returns 0x20000000
T5F18 001:984.342 JLINK_ClrBPEx(BPHandle = 0x0000000D)
T5F18 001:984.351 - 0.008ms returns 0x00
T5F18 001:984.363 JLINK_ReadReg(R0)
T5F18 001:984.372 - 0.008ms returns 0x00000000
T5F18 001:985.286 JLINK_WriteMem(0x200003F0, 0x10 Bytes, ...)
T5F18 001:985.300   Data:  AB 42 02 D1 00 25 06 E0 51 E0 2D 4D AB 42 01 D1
T5F18 001:985.321   CPU_WriteMem(16 bytes @ 0x200003F0)
T5F18 001:988.466 - 3.178ms returns 0x10
T5F18 001:988.482 JLINK_WriteMem(0x20000400, 0x70 Bytes, ...)
T5F18 001:988.491   Data:  01 25 00 E0 02 25 96 07 F6 0E B5 40 28 43 27 4D ...
T5F18 001:988.507   CPU_WriteMem(112 bytes @ 0x20000400)
T5F18 001:992.644 - 4.161ms returns 0x70
T5F18 001:992.660 JLINK_HasError()
T5F18 001:992.671 JLINK_WriteReg(R0, 0x08000400)
T5F18 001:992.682 - 0.011ms returns 0
T5F18 001:992.691 JLINK_WriteReg(R1, 0x00000080)
T5F18 001:992.700 - 0.008ms returns 0
T5F18 001:992.709 JLINK_WriteReg(R2, 0x200003F0)
T5F18 001:992.717 - 0.008ms returns 0
T5F18 001:992.789 JLINK_WriteReg(R3, 0x00000000)
T5F18 001:992.804 - 0.014ms returns 0
T5F18 001:992.813 JLINK_WriteReg(R4, 0x00000000)
T5F18 001:992.821 - 0.008ms returns 0
T5F18 001:992.830 JLINK_WriteReg(R5, 0x00000000)
T5F18 001:992.839 - 0.008ms returns 0
T5F18 001:992.847 JLINK_WriteReg(R6, 0x00000000)
T5F18 001:992.856 - 0.008ms returns 0
T5F18 001:992.865 JLINK_WriteReg(R7, 0x00000000)
T5F18 001:992.873 - 0.008ms returns 0
T5F18 001:992.882 JLINK_WriteReg(R8, 0x00000000)
T5F18 001:992.890 - 0.008ms returns 0
T5F18 001:992.899 JLINK_WriteReg(R9, 0x200003E8)
T5F18 001:992.907 - 0.008ms returns 0
T5F18 001:992.916 JLINK_WriteReg(R10, 0x00000000)
T5F18 001:992.925 - 0.008ms returns 0
T5F18 001:992.934 JLINK_WriteReg(R11, 0x00000000)
T5F18 001:992.942 - 0.008ms returns 0
T5F18 001:992.951 JLINK_WriteReg(R12, 0x00000000)
T5F18 001:992.959 - 0.008ms returns 0
T5F18 001:992.968 JLINK_WriteReg(R13 (SP), 0x20001000)
T5F18 001:992.977 - 0.009ms returns 0
T5F18 001:992.986 JLINK_WriteReg(R14, 0x20000001)
T5F18 001:992.994 - 0.008ms returns 0
T5F18 001:993.003 JLINK_WriteReg(R15 (PC), 0x20000320)
T5F18 001:993.011 - 0.008ms returns 0
T5F18 001:993.020 JLINK_WriteReg(XPSR, 0x01000000)
T5F18 001:993.029 - 0.008ms returns 0
T5F18 001:993.038 JLINK_WriteReg(MSP, 0x20001000)
T5F18 001:993.046 - 0.008ms returns 0
T5F18 001:993.055 JLINK_WriteReg(PSP, 0x20001000)
T5F18 001:993.063 - 0.008ms returns 0
T5F18 001:993.072 JLINK_WriteReg(CFBP, 0x00000000)
T5F18 001:993.080 - 0.008ms returns 0
T5F18 001:993.089 JLINK_SetBPEx(Addr = 0x20000000, Type = 0xFFFFFFF2)
T5F18 001:993.099 - 0.009ms returns 0x0000000E
T5F18 001:993.109 JLINK_Go()
T5F18 001:993.123   CPU_ReadMem(4 bytes @ 0xE0001000)
T5F18 002:004.411 - 11.300ms
T5F18 002:004.441 JLINK_IsHalted()
T5F18 002:012.627   CPU_ReadMem(2 bytes @ 0x20000000)
